!Agilent Technologies,E5071C,MY46316135,A.11.02
!Date: Fri Aug 28 15:14:06 2020
!Data & Calibration Information:
!Freq	S11:SOLT2(ON)	S21:SOLT2(ON)	S12:SOLT2(ON)	S22:SOLT2(ON)
!PortZ  Port1:50+j0    Port2:50+j0
!Above PortZ is port z conversion or system Z0 setting when saving the data.
!When reading, reference impedance value at option line is always used.
# Hz S RI R 50
1403500000	-2.804246e-001	2.045695e-001	4.905784e-001	4.922942e-001	4.842023e-001	4.828832e-001	-3.428629e-001	1.649616e-001
1403504884	-2.784681e-001	2.036977e-001	4.929929e-001	4.908955e-001	4.863833e-001	4.818848e-001	-3.408209e-001	1.649463e-001
1403509768	-2.769814e-001	2.036293e-001	4.950516e-001	4.898283e-001	4.888934e-001	4.809523e-001	-3.388733e-001	1.645044e-001
1403514652	-2.752625e-001	2.032100e-001	4.972572e-001	4.886945e-001	4.911594e-001	4.800465e-001	-3.371984e-001	1.643258e-001
1403519536	-2.729057e-001	2.027625e-001	4.995282e-001	4.877726e-001	4.935170e-001	4.790233e-001	-3.354981e-001	1.642722e-001
1403524420	-2.710198e-001	2.023914e-001	5.017704e-001	4.866169e-001	4.956024e-001	4.778661e-001	-3.335369e-001	1.639231e-001
1403529304	-2.691020e-001	2.019254e-001	5.041196e-001	4.856032e-001	4.976457e-001	4.768994e-001	-3.317420e-001	1.636655e-001
1403534188	-2.671052e-001	2.015276e-001	5.065984e-001	4.844966e-001	5.002452e-001	4.757944e-001	-3.299070e-001	1.634002e-001
1403539072	-2.652603e-001	2.012039e-001	5.086617e-001	4.835284e-001	5.020776e-001	4.749893e-001	-3.283061e-001	1.634335e-001
1403543956	-2.628877e-001	2.009213e-001	5.108935e-001	4.826517e-001	5.047436e-001	4.739616e-001	-3.261900e-001	1.633255e-001
1403548840	-2.612912e-001	2.001129e-001	5.131001e-001	4.812243e-001	5.064175e-001	4.725825e-001	-3.246487e-001	1.626717e-001
1403553724	-2.590635e-001	1.995195e-001	5.153422e-001	4.801607e-001	5.087620e-001	4.716460e-001	-3.226121e-001	1.625433e-001
1403558608	-2.574668e-001	1.992778e-001	5.177428e-001	4.789801e-001	5.109918e-001	4.706732e-001	-3.210365e-001	1.620843e-001
1403563492	-2.555401e-001	1.985635e-001	5.199694e-001	4.778184e-001	5.132450e-001	4.695261e-001	-3.190944e-001	1.619920e-001
1403568376	-2.534567e-001	1.981983e-001	5.219553e-001	4.766427e-001	5.155362e-001	4.681917e-001	-3.173875e-001	1.617486e-001
1403573260	-2.519572e-001	1.975869e-001	5.243353e-001	4.754022e-001	5.177805e-001	4.672540e-001	-3.154555e-001	1.613355e-001
1403578144	-2.496335e-001	1.970247e-001	5.264893e-001	4.740377e-001	5.199547e-001	4.661125e-001	-3.137348e-001	1.607631e-001
1403583028	-2.479165e-001	1.967803e-001	5.288048e-001	4.732181e-001	5.220530e-001	4.650982e-001	-3.120499e-001	1.604048e-001
1403587912	-2.456284e-001	1.957134e-001	5.310892e-001	4.720255e-001	5.240793e-001	4.636442e-001	-3.104250e-001	1.602473e-001
1403592796	-2.443710e-001	1.958178e-001	5.329129e-001	4.705358e-001	5.263787e-001	4.627876e-001	-3.082858e-001	1.601531e-001
1403597680	-2.424854e-001	1.946974e-001	5.354103e-001	4.694779e-001	5.287286e-001	4.614574e-001	-3.068295e-001	1.593955e-001
1403602564	-2.405432e-001	1.942277e-001	5.375541e-001	4.679959e-001	5.307932e-001	4.601186e-001	-3.048751e-001	1.594392e-001
1403607448	-2.383817e-001	1.938136e-001	5.396997e-001	4.670780e-001	5.327510e-001	4.590984e-001	-3.032548e-001	1.586278e-001
1403612332	-2.371016e-001	1.932627e-001	5.421230e-001	4.654998e-001	5.351597e-001	4.581970e-001	-3.016254e-001	1.583630e-001
1403617216	-2.350842e-001	1.925565e-001	5.440092e-001	4.642238e-001	5.372647e-001	4.564477e-001	-2.998198e-001	1.579183e-001
1403622100	-2.332128e-001	1.918292e-001	5.464190e-001	4.629446e-001	5.393476e-001	4.550969e-001	-2.978550e-001	1.578116e-001
1403626984	-2.311547e-001	1.913495e-001	5.484644e-001	4.616680e-001	5.415273e-001	4.542070e-001	-2.962240e-001	1.569362e-001
1403631868	-2.296169e-001	1.908049e-001	5.508084e-001	4.603342e-001	5.438008e-001	4.528115e-001	-2.945656e-001	1.567862e-001
1403636752	-2.275982e-001	1.898982e-001	5.529505e-001	4.590199e-001	5.459880e-001	4.517377e-001	-2.926993e-001	1.564178e-001
1403641636	-2.256731e-001	1.893891e-001	5.550393e-001	4.575729e-001	5.480091e-001	4.501839e-001	-2.912231e-001	1.558424e-001
1403646520	-2.242353e-001	1.888722e-001	5.571376e-001	4.560926e-001	5.500848e-001	4.488863e-001	-2.894516e-001	1.554652e-001
1403651404	-2.222804e-001	1.878917e-001	5.594596e-001	4.548737e-001	5.522550e-001	4.477015e-001	-2.875265e-001	1.548983e-001
1403656288	-2.207822e-001	1.872796e-001	5.615163e-001	4.530578e-001	5.541260e-001	4.463092e-001	-2.861965e-001	1.547738e-001
1403661172	-2.191840e-001	1.866920e-001	5.633604e-001	4.519269e-001	5.565605e-001	4.453588e-001	-2.843597e-001	1.541430e-001
1403666056	-2.170135e-001	1.858087e-001	5.656282e-001	4.505858e-001	5.585970e-001	4.434883e-001	-2.826733e-001	1.534648e-001
1403670940	-2.151738e-001	1.852506e-001	5.677588e-001	4.492412e-001	5.605634e-001	4.422110e-001	-2.811672e-001	1.529909e-001
1403675824	-2.133552e-001	1.848156e-001	5.699187e-001	4.480666e-001	5.625053e-001	4.407667e-001	-2.794132e-001	1.525643e-001
1403680708	-2.119014e-001	1.843273e-001	5.718517e-001	4.466889e-001	5.646019e-001	4.395247e-001	-2.773942e-001	1.523690e-001
1403685592	-2.100655e-001	1.830605e-001	5.739154e-001	4.450708e-001	5.670824e-001	4.382715e-001	-2.760157e-001	1.518109e-001
1403690476	-2.084587e-001	1.823053e-001	5.762681e-001	4.433628e-001	5.691934e-001	4.368959e-001	-2.744787e-001	1.509531e-001
1403695360	-2.066284e-001	1.820831e-001	5.783938e-001	4.420424e-001	5.709079e-001	4.353208e-001	-2.728153e-001	1.504448e-001
1403700244	-2.050651e-001	1.808392e-001	5.804339e-001	4.405995e-001	5.730940e-001	4.339963e-001	-2.710097e-001	1.499880e-001
1403705128	-2.033281e-001	1.800401e-001	5.825357e-001	4.391211e-001	5.752387e-001	4.326203e-001	-2.694307e-001	1.495629e-001
1403710012	-2.015967e-001	1.795163e-001	5.846193e-001	4.374707e-001	5.771016e-001	4.313023e-001	-2.679343e-001	1.488576e-001
1403714896	-2.001039e-001	1.789910e-001	5.867205e-001	4.359024e-001	5.793545e-001	4.294945e-001	-2.664413e-001	1.484537e-001
1403719780	-1.981431e-001	1.776095e-001	5.888155e-001	4.344346e-001	5.810435e-001	4.285349e-001	-2.645553e-001	1.478468e-001
1403724664	-1.966178e-001	1.768520e-001	5.907068e-001	4.327822e-001	5.833808e-001	4.265977e-001	-2.632266e-001	1.470544e-001
1403729548	-1.950103e-001	1.764102e-001	5.926981e-001	4.313887e-001	5.853073e-001	4.251137e-001	-2.610811e-001	1.466846e-001
1403734432	-1.935398e-001	1.753941e-001	5.947974e-001	4.297048e-001	5.876150e-001	4.237825e-001	-2.596331e-001	1.459537e-001
1403739316	-1.915088e-001	1.743925e-001	5.968855e-001	4.282556e-001	5.894874e-001	4.223754e-001	-2.582879e-001	1.454752e-001
1403744200	-1.899351e-001	1.737535e-001	5.989723e-001	4.268402e-001	5.915476e-001	4.209852e-001	-2.567907e-001	1.448113e-001
1403749084	-1.882277e-001	1.729813e-001	6.009933e-001	4.250627e-001	5.935125e-001	4.190700e-001	-2.550772e-001	1.442606e-001
1403753968	-1.866544e-001	1.722193e-001	6.029025e-001	4.235863e-001	5.953475e-001	4.176484e-001	-2.532571e-001	1.437683e-001
1403758852	-1.852281e-001	1.714651e-001	6.046890e-001	4.218639e-001	5.973574e-001	4.163797e-001	-2.517073e-001	1.429389e-001
1403763736	-1.833683e-001	1.703793e-001	6.070276e-001	4.205105e-001	5.994677e-001	4.150038e-001	-2.503598e-001	1.424003e-001
1403768620	-1.818759e-001	1.695453e-001	6.089914e-001	4.187568e-001	6.014654e-001	4.131177e-001	-2.488648e-001	1.417142e-001
1403773504	-1.805121e-001	1.687684e-001	6.108269e-001	4.170514e-001	6.033487e-001	4.116499e-001	-2.474730e-001	1.411842e-001
1403778388	-1.785701e-001	1.679403e-001	6.128299e-001	4.154859e-001	6.056237e-001	4.101290e-001	-2.455200e-001	1.403889e-001
1403783272	-1.771672e-001	1.668337e-001	6.148265e-001	4.137688e-001	6.074467e-001	4.083617e-001	-2.441885e-001	1.397733e-001
1403788156	-1.756617e-001	1.661338e-001	6.166342e-001	4.121104e-001	6.091985e-001	4.069104e-001	-2.426423e-001	1.391622e-001
1403793040	-1.741823e-001	1.653029e-001	6.186108e-001	4.105646e-001	6.115807e-001	4.050655e-001	-2.412400e-001	1.385651e-001
1403797924	-1.724691e-001	1.646192e-001	6.206234e-001	4.089106e-001	6.136100e-001	4.034421e-001	-2.397369e-001	1.377558e-001
1403802808	-1.708940e-001	1.635566e-001	6.225555e-001	4.071123e-001	6.153016e-001	4.018779e-001	-2.381466e-001	1.369046e-001
1403807692	-1.692342e-001	1.623900e-001	6.245768e-001	4.055592e-001	6.173933e-001	4.002954e-001	-2.369003e-001	1.365096e-001
1403812576	-1.680542e-001	1.616446e-001	6.265460e-001	4.036761e-001	6.198150e-001	3.987315e-001	-2.355083e-001	1.356401e-001
1403817460	-1.665651e-001	1.606711e-001	6.286659e-001	4.019249e-001	6.214850e-001	3.973737e-001	-2.338159e-001	1.349091e-001
1403822344	-1.649750e-001	1.594808e-001	6.303988e-001	4.003523e-001	6.233201e-001	3.954776e-001	-2.323545e-001	1.343509e-001
1403827228	-1.635366e-001	1.587257e-001	6.321126e-001	3.986162e-001	6.254467e-001	3.937213e-001	-2.309739e-001	1.330166e-001
1403832112	-1.623507e-001	1.575405e-001	6.342673e-001	3.968362e-001	6.272267e-001	3.920309e-001	-2.295612e-001	1.327613e-001
1403836996	-1.606405e-001	1.571230e-001	6.359381e-001	3.949703e-001	6.292907e-001	3.902434e-001	-2.281570e-001	1.319413e-001
1403841880	-1.592876e-001	1.559769e-001	6.378009e-001	3.932640e-001	6.313553e-001	3.885724e-001	-2.268356e-001	1.314180e-001
1403846764	-1.577295e-001	1.548953e-001	6.398424e-001	3.913798e-001	6.333339e-001	3.869858e-001	-2.252708e-001	1.306488e-001
1403851648	-1.561390e-001	1.540662e-001	6.415317e-001	3.897389e-001	6.346699e-001	3.854123e-001	-2.237924e-001	1.294640e-001
1403856532	-1.546503e-001	1.532879e-001	6.433575e-001	3.880851e-001	6.368482e-001	3.835713e-001	-2.225789e-001	1.289012e-001
1403861416	-1.532400e-001	1.522886e-001	6.453861e-001	3.862770e-001	6.388482e-001	3.817105e-001	-2.210183e-001	1.284110e-001
1403866300	-1.520752e-001	1.510882e-001	6.472656e-001	3.841030e-001	6.403167e-001	3.802561e-001	-2.195665e-001	1.274675e-001
1403871184	-1.506555e-001	1.498764e-001	6.488239e-001	3.822934e-001	6.420683e-001	3.785025e-001	-2.183297e-001	1.267427e-001
1403876068	-1.490883e-001	1.491651e-001	6.507163e-001	3.807318e-001	6.441955e-001	3.765437e-001	-2.168080e-001	1.259303e-001
1403880952	-1.476542e-001	1.479212e-001	6.524940e-001	3.787322e-001	6.456517e-001	3.747004e-001	-2.155258e-001	1.252526e-001
1403885836	-1.463396e-001	1.470857e-001	6.543545e-001	3.769928e-001	6.477849e-001	3.732434e-001	-2.142327e-001	1.244487e-001
1403890720	-1.453070e-001	1.458808e-001	6.561610e-001	3.751387e-001	6.495622e-001	3.714496e-001	-2.126050e-001	1.236222e-001
1403895604	-1.435975e-001	1.449613e-001	6.579672e-001	3.732537e-001	6.514816e-001	3.694704e-001	-2.114371e-001	1.226682e-001
1403900488	-1.426961e-001	1.440537e-001	6.596380e-001	3.715008e-001	6.531516e-001	3.679677e-001	-2.099806e-001	1.220863e-001
1403905372	-1.411489e-001	1.431434e-001	6.614096e-001	3.697404e-001	6.549175e-001	3.658255e-001	-2.086238e-001	1.211560e-001
1403910256	-1.397019e-001	1.419456e-001	6.632852e-001	3.674886e-001	6.566021e-001	3.640173e-001	-2.072787e-001	1.200405e-001
1403915140	-1.385046e-001	1.413182e-001	6.649847e-001	3.657570e-001	6.582967e-001	3.619467e-001	-2.064221e-001	1.195146e-001
1403920024	-1.371038e-001	1.395029e-001	6.668185e-001	3.639115e-001	6.600013e-001	3.604941e-001	-2.047430e-001	1.186510e-001
1403924908	-1.359304e-001	1.390229e-001	6.684386e-001	3.617820e-001	6.621431e-001	3.584402e-001	-2.035593e-001	1.176869e-001
1403929792	-1.345329e-001	1.375612e-001	6.703675e-001	3.597285e-001	6.637097e-001	3.565413e-001	-2.023026e-001	1.170189e-001
1403934676	-1.332775e-001	1.363544e-001	6.720823e-001	3.579182e-001	6.652286e-001	3.548299e-001	-2.012739e-001	1.162374e-001
1403939560	-1.317598e-001	1.359836e-001	6.736262e-001	3.563492e-001	6.670826e-001	3.526581e-001	-1.997903e-001	1.151536e-001
1403944444	-1.308958e-001	1.345056e-001	6.754190e-001	3.541030e-001	6.690354e-001	3.508789e-001	-1.984707e-001	1.145554e-001
1403949328	-1.296097e-001	1.336784e-001	6.770331e-001	3.522324e-001	6.704942e-001	3.489656e-001	-1.974458e-001	1.135704e-001
1403954212	-1.283714e-001	1.325721e-001	6.788525e-001	3.501305e-001	6.723379e-001	3.469652e-001	-1.961621e-001	1.129230e-001
1403959096	-1.271869e-001	1.311040e-001	6.804372e-001	3.483758e-001	6.739432e-001	3.451772e-001	-1.948207e-001	1.120964e-001
1403963980	-1.258921e-001	1.303823e-001	6.821152e-001	3.461018e-001	6.755397e-001	3.431855e-001	-1.936203e-001	1.113559e-001
1403968864	-1.242507e-001	1.292526e-001	6.836845e-001	3.444064e-001	6.774174e-001	3.411317e-001	-1.920745e-001	1.102609e-001
1403973748	-1.232847e-001	1.284376e-001	6.852136e-001	3.424092e-001	6.791630e-001	3.395833e-001	-1.909784e-001	1.092524e-001
1403978632	-1.221392e-001	1.270880e-001	6.869941e-001	3.403705e-001	6.805126e-001	3.372784e-001	-1.900768e-001	1.084221e-001
1403983516	-1.208835e-001	1.256100e-001	6.887979e-001	3.382181e-001	6.823392e-001	3.356723e-001	-1.887123e-001	1.074595e-001
1403988400	-1.199352e-001	1.249146e-001	6.900880e-001	3.364686e-001	6.838075e-001	3.335167e-001	-1.876291e-001	1.067215e-001
1403993284	-1.186013e-001	1.239941e-001	6.918310e-001	3.343433e-001	6.853575e-001	3.315987e-001	-1.864757e-001	1.057377e-001
1403998168	-1.174109e-001	1.227342e-001	6.933766e-001	3.322026e-001	6.870896e-001	3.295365e-001	-1.852193e-001	1.050006e-001
1404003053	-1.164042e-001	1.215652e-001	6.949115e-001	3.304619e-001	6.883746e-001	3.279076e-001	-1.838720e-001	1.040118e-001
1404007937	-1.155251e-001	1.204512e-001	6.964244e-001	3.282025e-001	6.903904e-001	3.257672e-001	-1.829546e-001	1.027902e-001
1404012821	-1.140792e-001	1.191950e-001	6.983210e-001	3.263903e-001	6.919995e-001	3.238021e-001	-1.817846e-001	1.020592e-001
1404017705	-1.131538e-001	1.178915e-001	6.997440e-001	3.241144e-001	6.934007e-001	3.217432e-001	-1.804307e-001	1.013277e-001
1404022589	-1.119741e-001	1.172619e-001	7.012929e-001	3.223189e-001	6.948142e-001	3.196810e-001	-1.796942e-001	1.004933e-001
1404027473	-1.109423e-001	1.159930e-001	7.027285e-001	3.201155e-001	6.966438e-001	3.178580e-001	-1.783100e-001	9.944370e-002
1404032357	-1.097711e-001	1.148909e-001	7.042393e-001	3.178326e-001	6.983497e-001	3.154684e-001	-1.775160e-001	9.817512e-002
1404037241	-1.088672e-001	1.137144e-001	7.059844e-001	3.160113e-001	7.000806e-001	3.136628e-001	-1.760597e-001	9.760894e-002
1404042125	-1.075845e-001	1.128042e-001	7.071312e-001	3.138775e-001	7.014952e-001	3.114904e-001	-1.752628e-001	9.648532e-002
1404047009	-1.065384e-001	1.115507e-001	7.090849e-001	3.116384e-001	7.027254e-001	3.096469e-001	-1.740602e-001	9.563845e-002
1404051893	-1.054668e-001	1.104651e-001	7.102763e-001	3.098021e-001	7.045645e-001	3.074084e-001	-1.727838e-001	9.473421e-002
1404056777	-1.045701e-001	1.092698e-001	7.119425e-001	3.075451e-001	7.059800e-001	3.055006e-001	-1.720686e-001	9.364791e-002
1404061661	-1.040854e-001	1.080603e-001	7.131517e-001	3.056068e-001	7.075016e-001	3.030588e-001	-1.709358e-001	9.283973e-002
1404066545	-1.023444e-001	1.072221e-001	7.147029e-001	3.034638e-001	7.087834e-001	3.011817e-001	-1.698836e-001	9.197444e-002
1404071429	-1.018419e-001	1.058405e-001	7.162752e-001	3.012545e-001	7.103611e-001	2.993112e-001	-1.691726e-001	9.126326e-002
1404076313	-1.005149e-001	1.047082e-001	7.177115e-001	2.989194e-001	7.116372e-001	2.971345e-001	-1.677268e-001	9.030674e-002
1404081197	-9.919380e-002	1.036743e-001	7.190161e-001	2.970665e-001	7.130712e-001	2.950346e-001	-1.666475e-001	8.945938e-002
1404086081	-9.850970e-002	1.025142e-001	7.204927e-001	2.950545e-001	7.145787e-001	2.930347e-001	-1.656618e-001	8.830234e-002
1404090965	-9.770197e-002	1.015114e-001	7.218686e-001	2.926215e-001	7.161129e-001	2.909656e-001	-1.648087e-001	8.706134e-002
1404095849	-9.653700e-002	1.000127e-001	7.233826e-001	2.904584e-001	7.176003e-001	2.889754e-001	-1.639257e-001	8.621308e-002
1404100733	-9.588058e-002	9.908852e-002	7.246672e-001	2.885311e-001	7.190621e-001	2.867562e-001	-1.630313e-001	8.529452e-002
1404105617	-9.479937e-002	9.795139e-002	7.259579e-001	2.863898e-001	7.202637e-001	2.845077e-001	-1.617466e-001	8.443711e-002
1404110501	-9.389732e-002	9.670067e-002	7.273978e-001	2.844525e-001	7.217536e-001	2.825265e-001	-1.607492e-001	8.350132e-002
1404115385	-9.274193e-002	9.533292e-002	7.288503e-001	2.819435e-001	7.231103e-001	2.803440e-001	-1.598146e-001	8.243111e-002
1404120269	-9.193992e-002	9.446130e-002	7.301647e-001	2.799871e-001	7.246273e-001	2.781214e-001	-1.590939e-001	8.153847e-002
1404125153	-9.098418e-002	9.321210e-002	7.313956e-001	2.776940e-001	7.259336e-001	2.760805e-001	-1.579890e-001	8.066178e-002
1404130037	-9.021037e-002	9.210004e-002	7.326978e-001	2.755005e-001	7.271816e-001	2.739742e-001	-1.568727e-001	7.970807e-002
1404134921	-8.908556e-002	9.080101e-002	7.341271e-001	2.733642e-001	7.285229e-001	2.715454e-001	-1.562179e-001	7.846861e-002
1404139805	-8.863132e-002	8.973609e-002	7.355083e-001	2.711240e-001	7.299864e-001	2.695310e-001	-1.550771e-001	7.768873e-002
1404144689	-8.787311e-002	8.890194e-002	7.365633e-001	2.689804e-001	7.313618e-001	2.672456e-001	-1.544145e-001	7.667675e-002
1404149573	-8.645689e-002	8.763935e-002	7.378793e-001	2.668190e-001	7.328237e-001	2.653098e-001	-1.531806e-001	7.576696e-002
1404154457	-8.605174e-002	8.604287e-002	7.393566e-001	2.644509e-001	7.339107e-001	2.632549e-001	-1.524168e-001	7.480823e-002
1404159341	-8.520794e-002	8.488833e-002	7.407611e-001	2.623470e-001	7.351640e-001	2.608163e-001	-1.515965e-001	7.377322e-002
1404164225	-8.445692e-002	8.396532e-002	7.417046e-001	2.599037e-001	7.366442e-001	2.586778e-001	-1.508149e-001	7.287892e-002
1404169109	-8.359547e-002	8.310336e-002	7.429325e-001	2.579292e-001	7.378979e-001	2.565785e-001	-1.498774e-001	7.179287e-002
1404173993	-8.254001e-002	8.143580e-002	7.442828e-001	2.555252e-001	7.393776e-001	2.542383e-001	-1.488050e-001	7.091170e-002
1404178877	-8.205811e-002	8.048649e-002	7.455875e-001	2.532309e-001	7.404522e-001	2.518420e-001	-1.480031e-001	6.987442e-002
1404183761	-8.096243e-002	7.940172e-002	7.467780e-001	2.512139e-001	7.417356e-001	2.501006e-001	-1.471976e-001	6.891612e-002
1404188645	-8.059628e-002	7.821328e-002	7.480978e-001	2.488043e-001	7.429255e-001	2.476733e-001	-1.464806e-001	6.775630e-002
1404193529	-7.951722e-002	7.700831e-002	7.491865e-001	2.467304e-001	7.442050e-001	2.455028e-001	-1.456652e-001	6.705044e-002
1404198413	-7.893846e-002	7.576369e-002	7.504658e-001	2.443843e-001	7.454778e-001	2.432075e-001	-1.445903e-001	6.583043e-002
1404203297	-7.781154e-002	7.487214e-002	7.515629e-001	2.421875e-001	7.466082e-001	2.411037e-001	-1.442140e-001	6.511543e-002
1404208181	-7.724680e-002	7.338838e-002	7.527060e-001	2.400514e-001	7.478161e-001	2.388855e-001	-1.432094e-001	6.387875e-002
1404213065	-7.647827e-002	7.233647e-002	7.541547e-001	2.377472e-001	7.492158e-001	2.366739e-001	-1.423566e-001	6.311564e-002
1404217949	-7.559681e-002	7.123444e-002	7.552224e-001	2.354234e-001	7.502739e-001	2.344431e-001	-1.419068e-001	6.207213e-002
1404222833	-7.521698e-002	7.002967e-002	7.563361e-001	2.333010e-001	7.516379e-001	2.323870e-001	-1.409423e-001	6.105745e-002
1404227717	-7.446690e-002	6.850256e-002	7.576302e-001	2.307752e-001	7.524413e-001	2.297096e-001	-1.401157e-001	6.013170e-002
1404232601	-7.390089e-002	6.751665e-002	7.582767e-001	2.284354e-001	7.539009e-001	2.274433e-001	-1.390774e-001	5.920679e-002
1404237485	-7.296421e-002	6.626390e-002	7.596412e-001	2.262218e-001	7.546933e-001	2.255031e-001	-1.386617e-001	5.805931e-002
1404242369	-7.220850e-002	6.545330e-002	7.606080e-001	2.240865e-001	7.560399e-001	2.230077e-001	-1.380865e-001	5.714693e-002
1404247253	-7.163938e-002	6.411618e-002	7.617803e-001	2.216391e-001	7.573140e-001	2.209637e-001	-1.369076e-001	5.615882e-002
1404252137	-7.127294e-002	6.290901e-002	7.628416e-001	2.193808e-001	7.582508e-001	2.186688e-001	-1.364087e-001	5.525195e-002
