!Agilent Technologies,E5071C,MY46316135,A.11.02
!Date: Fri Aug 28 18:11:55 2020
!Data & Calibration Information:
!Freq	S11:SOLT2(ON)	S21:SOLT2(ON)	S12:SOLT2(ON)	S22:SOLT2(ON)
!PortZ  Port1:50+j0    Port2:50+j0
!Above PortZ is port z conversion or system Z0 setting when saving the data.
!When reading, reference impedance value at option line is always used.
# Hz S RI R 50
1403500000	-3.235571e-001	2.338952e-001	4.908224e-001	5.034515e-001	4.867478e-001	4.922089e-001	-3.585927e-001	1.780131e-001
1403600000	-2.812887e-001	2.263626e-001	5.381269e-001	4.804927e-001	5.331653e-001	4.701131e-001	-3.213487e-001	1.741990e-001
1403700000	-2.413105e-001	2.143838e-001	5.838104e-001	4.523110e-001	5.778101e-001	4.432052e-001	-2.861259e-001	1.664974e-001
1403800000	-2.045740e-001	1.984326e-001	6.266326e-001	4.194496e-001	6.200621e-001	4.116150e-001	-2.533127e-001	1.554262e-001
1403900000	-1.716222e-001	1.792928e-001	6.661225e-001	3.824262e-001	6.594584e-001	3.758495e-001	-2.234885e-001	1.414584e-001
1404000000	-1.425584e-001	1.575319e-001	7.020221e-001	3.416663e-001	6.952783e-001	3.362564e-001	-1.969991e-001	1.252633e-001
1404100000	-1.177575e-001	1.340305e-001	7.337181e-001	2.978350e-001	7.272469e-001	2.935499e-001	-1.739127e-001	1.072919e-001
1404200000	-9.721477e-002	1.094127e-001	7.611709e-001	2.516853e-001	7.549756e-001	2.483899e-001	-1.543705e-001	8.829365e-002
1404300000	-8.086291e-002	8.456931e-002	7.840725e-001	2.037958e-001	7.785471e-001	2.011079e-001	-1.382396e-001	6.878989e-002
1404400000	-6.838476e-002	5.985630e-002	8.027357e-001	1.545515e-001	7.977937e-001	1.523769e-001	-1.253724e-001	4.923678e-002
1404500000	-5.953337e-002	3.592640e-002	8.170675e-001	1.048467e-001	8.127974e-001	1.030226e-001	-1.156493e-001	3.018316e-002
1404600000	-5.389558e-002	1.317143e-002	8.272920e-001	5.483986e-002	8.235746e-001	5.321529e-002	-1.086279e-001	1.199747e-002
1404700000	-5.121208e-002	-8.042386e-003	8.336007e-001	5.089855e-003	8.304180e-001	3.403049e-003	-1.041352e-001	-4.995406e-003
1404800000	-5.091493e-002	-2.747368e-002	8.362446e-001	-4.417743e-002	8.335103e-001	-4.606114e-002	-1.017164e-001	-2.066646e-002
1404900000	-5.274565e-002	-4.499740e-002	8.355018e-001	-9.258868e-002	8.330524e-001	-9.484125e-002	-1.012018e-001	-3.485181e-002
1405000000	-5.617504e-002	-6.045202e-002	8.316913e-001	-1.400028e-001	8.294194e-001	-1.424285e-001	-1.020949e-001	-4.734203e-002
1405100000	-6.100014e-002	-7.384032e-002	8.249463e-001	-1.861330e-001	8.227580e-001	-1.889367e-001	-1.041685e-001	-5.818923e-002
1405200000	-6.679229e-002	-8.513770e-002	8.156443e-001	-2.309457e-001	8.134350e-001	-2.341382e-001	-1.071077e-001	-6.734829e-002
1405300000	-7.332840e-002	-9.441751e-002	8.039603e-001	-2.744397e-001	8.014845e-001	-2.778732e-001	-1.106546e-001	-7.483545e-002
1405400000	-8.023693e-002	-1.018093e-001	7.900111e-001	-3.165423e-001	7.873439e-001	-3.202160e-001	-1.145941e-001	-8.076075e-002
1405500000	-8.729044e-002	-1.073160e-001	7.740741e-001	-3.570898e-001	7.711625e-001	-3.609701e-001	-1.187470e-001	-8.517630e-002
1405600000	-9.430556e-002	-1.111365e-001	7.564290e-001	-3.961602e-001	7.530199e-001	-4.001664e-001	-1.228032e-001	-8.812637e-002
1405700000	-1.011372e-001	-1.132398e-001	7.369516e-001	-4.338253e-001	7.331987e-001	-4.378604e-001	-1.267079e-001	-8.985918e-002
1405800000	-1.075679e-001	-1.139741e-001	7.160039e-001	-4.698703e-001	7.117311e-001	-4.739759e-001	-1.302451e-001	-9.035637e-002
1405900000	-1.134791e-001	-1.133567e-001	6.936316e-001	-5.044657e-001	6.889601e-001	-5.084147e-001	-1.334508e-001	-8.981326e-002
1406000000	-1.187777e-001	-1.115202e-001	6.699033e-001	-5.376123e-001	6.646994e-001	-5.413961e-001	-1.360480e-001	-8.830799e-002
1406100000	-1.233338e-001	-1.086678e-001	6.449266e-001	-5.692387e-001	6.393012e-001	-5.728181e-001	-1.381208e-001	-8.600397e-002
1406200000	-1.271923e-001	-1.048718e-001	6.187507e-001	-5.995177e-001	6.127023e-001	-6.026669e-001	-1.394871e-001	-8.301466e-002
1406300000	-1.301586e-001	-1.003188e-001	5.914229e-001	-6.282772e-001	5.850864e-001	-6.310454e-001	-1.402071e-001	-7.948961e-002
1406400000	-1.322644e-001	-9.509572e-002	5.632115e-001	-6.555953e-001	5.564639e-001	-6.579342e-001	-1.402722e-001	-7.549451e-002
1406500000	-1.335210e-001	-8.935527e-002	5.338983e-001	-6.813629e-001	5.270235e-001	-6.832278e-001	-1.394926e-001	-7.120033e-002
1406600000	-1.338148e-001	-8.324126e-002	5.037469e-001	-7.057159e-001	4.966026e-001	-7.069492e-001	-1.380300e-001	-6.663784e-002
1406700000	-1.332286e-001	-7.687716e-002	4.726847e-001	-7.285988e-001	4.653964e-001	-7.293312e-001	-1.358682e-001	-6.197385e-002
1406800000	-1.317244e-001	-7.034314e-002	4.408494e-001	-7.499361e-001	4.335153e-001	-7.501385e-001	-1.330439e-001	-5.728891e-002
1406900000	-1.294239e-001	-6.378586e-002	4.082193e-001	-7.699078e-001	4.009361e-001	-7.694569e-001	-1.295062e-001	-5.265500e-002
1407000000	-1.262045e-001	-5.722943e-002	3.750083e-001	-7.881825e-001	3.676982e-001	-7.872255e-001	-1.253183e-001	-4.815371e-002
1407100000	-1.221844e-001	-5.086013e-002	3.410236e-001	-8.050121e-001	3.339133e-001	-8.034407e-001	-1.205365e-001	-4.395071e-002
1407200000	-1.174520e-001	-4.474377e-002	3.065797e-001	-8.202743e-001	2.995842e-001	-8.182474e-001	-1.152839e-001	-3.996824e-002
1407300000	-1.119790e-001	-3.891252e-002	2.715516e-001	-8.340283e-001	2.649331e-001	-8.313622e-001	-1.094666e-001	-3.637633e-002
1407400000	-1.059130e-001	-3.347386e-002	2.361252e-001	-8.461262e-001	2.297245e-001	-8.429909e-001	-1.032753e-001	-3.316986e-002
1407500000	-9.922232e-002	-2.851700e-002	2.003236e-001	-8.566631e-001	1.942368e-001	-8.531001e-001	-9.670945e-002	-3.046417e-002
1407600000	-9.203694e-002	-2.401413e-002	1.641571e-001	-8.656838e-001	1.584955e-001	-8.616806e-001	-8.975944e-002	-2.819291e-002
1407700000	-8.435264e-002	-2.011377e-002	1.277921e-001	-8.729980e-001	1.226330e-001	-8.687093e-001	-8.265342e-002	-2.647585e-002
1407800000	-7.632292e-002	-1.669177e-002	9.121074e-002	-8.786979e-001	8.658643e-002	-8.741410e-001	-7.534668e-002	-2.532325e-002
1407900000	-6.797990e-002	-1.391026e-002	5.457542e-002	-8.828361e-001	5.032850e-002	-8.780412e-001	-6.796367e-002	-2.468877e-002
1408000000	-5.945673e-002	-1.189403e-002	1.785417e-002	-8.853869e-001	1.412056e-002	-8.803349e-001	-6.050883e-002	-2.464329e-002
1408100000	-5.072317e-002	-1.042112e-002	-1.870436e-002	-8.862672e-001	-2.194739e-002	-8.811893e-001	-5.311805e-002	-2.516846e-002
1408200000	-4.199362e-002	-9.635015e-003	-5.518055e-002	-8.856773e-001	-5.806075e-002	-8.804628e-001	-4.574900e-002	-2.625389e-002
1408300000	-3.322165e-002	-9.525609e-003	-9.160992e-002	-8.834460e-001	-9.386366e-002	-8.782889e-001	-3.859687e-002	-2.787006e-002
1408400000	-2.449703e-002	-1.001394e-002	-1.276651e-001	-8.796670e-001	-1.294872e-001	-8.746051e-001	-3.166948e-002	-3.002989e-002
1408500000	-1.585888e-002	-1.110908e-002	-1.634443e-001	-8.744055e-001	-1.647267e-001	-8.693819e-001	-2.499380e-002	-3.263941e-002
1408600000	-7.495189e-003	-1.286584e-002	-1.987948e-001	-8.676169e-001	-1.996840e-001	-8.627498e-001	-1.865157e-002	-3.576487e-002
1408700000	6.549553e-004	-1.518743e-002	-2.336443e-001	-8.593923e-001	-2.341529e-001	-8.547967e-001	-1.268314e-002	-3.929280e-002
1408800000	8.516850e-003	-1.802283e-002	-2.680221e-001	-8.497052e-001	-2.682452e-001	-8.453506e-001	-7.067221e-003	-4.320334e-002
1408900000	1.604394e-002	-2.135082e-002	-3.018705e-001	-8.386644e-001	-3.016984e-001	-8.346137e-001	-1.908557e-003	-4.748063e-002
1409000000	2.316741e-002	-2.516882e-002	-3.350235e-001	-8.263355e-001	-3.347095e-001	-8.224695e-001	2.745766e-003	-5.204712e-002
1409100000	2.978715e-002	-2.937805e-002	-3.675458e-001	-8.126289e-001	-3.669649e-001	-8.090783e-001	6.925988e-003	-5.691033e-002
1409200000	3.600566e-002	-3.392865e-002	-3.993356e-001	-7.976248e-001	-3.985625e-001	-7.944948e-001	1.054436e-002	-6.188176e-002
1409300000	4.175777e-002	-3.884713e-002	-4.302260e-001	-7.815394e-001	-4.294444e-001	-7.786544e-001	1.371136e-002	-6.708889e-002
1409400000	4.696913e-002	-4.405254e-002	-4.604979e-001	-7.641582e-001	-4.595189e-001	-7.616064e-001	1.618715e-002	-7.237539e-002
1409500000	5.170811e-002	-4.946139e-002	-4.897976e-001	-7.457721e-001	-4.888416e-001	-7.434602e-001	1.820818e-002	-7.770761e-002
1409600000	5.580117e-002	-5.502452e-002	-5.182446e-001	-7.263001e-001	-5.173687e-001	-7.242961e-001	1.968232e-002	-8.301944e-002
1409700000	5.937969e-002	-6.069090e-002	-5.457930e-001	-7.057791e-001	-5.448796e-001	-7.040097e-001	2.057782e-002	-8.835304e-002
1409800000	6.239413e-002	-6.639966e-002	-5.723614e-001	-6.843681e-001	-5.716034e-001	-6.828171e-001	2.093083e-002	-9.356754e-002
1409900000	6.495969e-002	-7.219550e-002	-5.979869e-001	-6.619261e-001	-5.973400e-001	-6.607188e-001	2.081514e-002	-9.861713e-002
1410000000	6.692077e-002	-7.791553e-002	-6.226935e-001	-6.387567e-001	-6.221183e-001	-6.375408e-001	2.008998e-002	-1.035574e-001
1410100000	6.844811e-002	-8.359366e-002	-6.463288e-001	-6.146413e-001	-6.459571e-001	-6.137070e-001	1.895735e-002	-1.081926e-001
1410200000	6.941218e-002	-8.910616e-002	-6.689159e-001	-5.897602e-001	-6.687099e-001	-5.889089e-001	1.731349e-002	-1.126110e-001
1410300000	6.995075e-002	-9.447619e-002	-6.904842e-001	-5.641601e-001	-6.904221e-001	-5.635188e-001	1.524779e-002	-1.167103e-001
1410400000	6.997449e-002	-9.970877e-002	-7.110126e-001	-5.378350e-001	-7.112864e-001	-5.371741e-001	1.276142e-002	-1.204568e-001
1410500000	6.960552e-002	-1.047082e-001	-7.304512e-001	-5.109549e-001	-7.308119e-001	-5.102882e-001	9.888536e-003	-1.238799e-001
1410600000	6.875702e-002	-1.094125e-001	-7.488701e-001	-4.834223e-001	-7.495351e-001	-4.828251e-001	6.704567e-003	-1.269402e-001
1410700000	6.756263e-002	-1.139066e-001	-7.661736e-001	-4.552928e-001	-7.669773e-001	-4.546657e-001	3.142481e-003	-1.295439e-001
1410800000	6.599274e-002	-1.181456e-001	-7.824091e-001	-4.267040e-001	-7.833741e-001	-4.259429e-001	-5.933629e-004	-1.317194e-001
1410900000	6.413159e-002	-1.219550e-001	-7.975221e-001	-3.975617e-001	-7.986138e-001	-3.966610e-001	-4.641791e-003	-1.334507e-001
1411000000	6.199725e-002	-1.255600e-001	-8.116112e-001	-3.680424e-001	-8.128219e-001	-3.671248e-001	-8.868699e-003	-1.347608e-001
1411100000	5.959458e-002	-1.287460e-001	-8.244890e-001	-3.380763e-001	-8.258733e-001	-3.369219e-001	-1.327589e-002	-1.355332e-001
1411200000	5.700639e-002	-1.315457e-001	-8.362928e-001	-3.077374e-001	-8.377622e-001	-3.064344e-001	-1.775162e-002	-1.358592e-001
1411300000	5.418145e-002	-1.339545e-001	-8.470097e-001	-2.770501e-001	-8.485624e-001	-2.756724e-001	-2.234711e-002	-1.356651e-001
1411400000	5.117354e-002	-1.360162e-001	-8.565965e-001	-2.461110e-001	-8.582016e-001	-2.445058e-001	-2.695395e-002	-1.350075e-001
1411500000	4.814770e-002	-1.376397e-001	-8.650413e-001	-2.148338e-001	-8.667311e-001	-2.128842e-001	-3.161679e-002	-1.339145e-001
1411600000	4.492425e-002	-1.389293e-001	-8.724140e-001	-1.833438e-001	-8.740460e-001	-1.812186e-001	-3.619000e-002	-1.322909e-001
1411700000	4.170546e-002	-1.398694e-001	-8.786179e-001	-1.516737e-001	-8.802060e-001	-1.492991e-001	-4.070621e-002	-1.302887e-001
1411800000	3.842485e-002	-1.403773e-001	-8.837065e-001	-1.198399e-001	-8.852060e-001	-1.172525e-001	-4.511192e-002	-1.277325e-001
1411900000	3.517833e-002	-1.405260e-001	-8.875912e-001	-8.778329e-002	-8.890577e-001	-8.506674e-002	-4.943325e-002	-1.247535e-001
1412000000	3.196004e-002	-1.403116e-001	-8.904296e-001	-5.574003e-002	-8.917005e-001	-5.270697e-002	-5.344540e-002	-1.213305e-001
1412100000	2.879701e-002	-1.398377e-001	-8.920173e-001	-2.353862e-002	-8.932695e-001	-2.037691e-002	-5.734615e-002	-1.175590e-001
1412200000	2.573803e-002	-1.389308e-001	-8.925039e-001	8.634951e-003	-8.935883e-001	1.195570e-002	-6.101177e-002	-1.133071e-001
1412300000	2.279861e-002	-1.378591e-001	-8.919010e-001	4.083292e-002	-8.927205e-001	4.443739e-002	-6.437698e-002	-1.087678e-001
1412400000	2.002101e-002	-1.364170e-001	-8.901320e-001	7.291965e-002	-8.907484e-001	7.663037e-002	-6.748614e-002	-1.039176e-001
1412500000	1.735989e-002	-1.346697e-001	-8.871899e-001	1.049768e-001	-8.875581e-001	1.088097e-001	-7.024237e-002	-9.872617e-002
1412600000	1.486929e-002	-1.326615e-001	-8.831139e-001	1.369426e-001	-8.833699e-001	1.409021e-001	-7.267517e-002	-9.325247e-002
1412700000	1.259369e-002	-1.304424e-001	-8.778613e-001	1.687519e-001	-8.779115e-001	1.726958e-001	-7.474031e-002	-8.750905e-002
1412800000	1.054164e-002	-1.280879e-001	-8.715289e-001	2.002281e-001	-8.712347e-001	2.044264e-001	-7.648271e-002	-8.157478e-002
1412900000	8.710647e-003	-1.254818e-001	-8.640054e-001	2.316575e-001	-8.634090e-001	2.357961e-001	-7.776623e-002	-7.544842e-002
1413000000	7.054276e-003	-1.227986e-001	-8.553724e-001	2.627028e-001	-8.546165e-001	2.669286e-001	-7.873447e-002	-6.923634e-002
1413100000	5.668529e-003	-1.199073e-001	-8.456079e-001	2.934565e-001	-8.446038e-001	2.975955e-001	-7.924620e-002	-6.283616e-002
1413200000	4.472716e-003	-1.169433e-001	-8.347307e-001	3.239816e-001	-8.333507e-001	3.280841e-001	-7.938004e-002	-5.636183e-002
1413300000	3.592196e-003	-1.138928e-001	-8.227488e-001	3.539656e-001	-8.211666e-001	3.580285e-001	-7.912173e-002	-4.986592e-002
1413400000	2.910090e-003	-1.108156e-001	-8.096513e-001	3.835122e-001	-8.077566e-001	3.875533e-001	-7.839067e-002	-4.334158e-002
1413500000	2.529157e-003	-1.077307e-001	-7.955502e-001	4.126407e-001	-7.933688e-001	4.165870e-001	-7.732224e-002	-3.684293e-002
1413600000	2.339100e-003	-1.046432e-001	-7.803069e-001	4.411969e-001	-7.778970e-001	4.451221e-001	-7.583201e-002	-3.042447e-002
1413700000	2.349964e-003	-1.015445e-001	-7.640597e-001	4.693269e-001	-7.613670e-001	4.731020e-001	-7.395403e-002	-2.405070e-002
1413800000	2.574699e-003	-9.851127e-002	-7.467154e-001	4.968356e-001	-7.438690e-001	5.003616e-001	-7.173180e-002	-1.788439e-002
1413900000	3.028164e-003	-9.561343e-002	-7.284593e-001	5.235555e-001	-7.253084e-001	5.270103e-001	-6.915871e-002	-1.179507e-002
1414000000	3.683054e-003	-9.276373e-002	-7.091216e-001	5.497695e-001	-7.057676e-001	5.529915e-001	-6.621135e-002	-5.869312e-003
1414100000	4.457893e-003	-9.001736e-002	-6.888099e-001	5.752214e-001	-6.852759e-001	5.782887e-001	-6.300922e-002	-1.960652e-004
1414200000	5.407585e-003	-8.746272e-002	-6.675305e-001	5.999743e-001	-6.637901e-001	6.028021e-001	-5.944292e-002	5.221019e-003
1414300000	6.451353e-003	-8.502444e-002	-6.454096e-001	6.238525e-001	-6.415427e-001	6.265365e-001	-5.564985e-002	1.042251e-002
1414400000	7.646596e-003	-8.274651e-002	-6.223758e-001	6.469600e-001	-6.183911e-001	6.493868e-001	-5.160959e-002	1.532606e-002
1414500000	8.942418e-003	-8.062483e-002	-5.984780e-001	6.692688e-001	-5.943734e-001	6.713948e-001	-4.735681e-002	2.000465e-002
1414600000	1.034385e-002	-7.870321e-002	-5.737385e-001	6.906793e-001	-5.694903e-001	6.925799e-001	-4.291839e-002	2.431830e-002
1414700000	1.170883e-002	-7.693636e-002	-5.482699e-001	7.110669e-001	-5.438454e-001	7.128006e-001	-3.830899e-002	2.837982e-002
1414800000	1.314939e-002	-7.542698e-002	-5.219130e-001	7.306640e-001	-5.174943e-001	7.320765e-001	-3.356757e-002	3.207338e-002
1414900000	1.455433e-002	-7.407657e-002	-4.949785e-001	7.492239e-001	-4.903977e-001	7.504577e-001	-2.871126e-002	3.537229e-002
1415000000	1.593842e-002	-7.292470e-002	-4.672589e-001	7.667941e-001	-4.626577e-001	7.677176e-001	-2.383181e-002	3.840178e-002
1415100000	1.723181e-002	-7.190101e-002	-4.388306e-001	7.832585e-001	-4.342635e-001	7.840108e-001	-1.892593e-002	4.108409e-002
1415200000	1.845705e-002	-7.115848e-002	-4.098975e-001	7.987740e-001	-4.052431e-001	7.992204e-001	-1.399983e-002	4.341769e-002
1415300000	1.964009e-002	-7.053446e-002	-3.802899e-001	8.131734e-001	-3.756872e-001	8.134219e-001	-9.110987e-003	4.545783e-002
1415400000	2.062417e-002	-7.008853e-002	-3.501103e-001	8.265527e-001	-3.455544e-001	8.265390e-001	-4.239317e-003	4.714007e-002
1415500000	2.147316e-002	-6.976105e-002	-3.194698e-001	8.387564e-001	-3.148828e-001	8.384195e-001	5.012514e-004	4.850557e-002
1415600000	2.214422e-002	-6.962135e-002	-2.883486e-001	8.498749e-001	-2.838791e-001	8.493877e-001	5.106608e-003	4.955639e-002
1415700000	2.261833e-002	-6.955801e-002	-2.568844e-001	8.597491e-001	-2.523976e-001	8.589685e-001	9.617836e-003	5.033620e-002
1415800000	2.290360e-002	-6.961733e-002	-2.248645e-001	8.685464e-001	-2.205275e-001	8.675423e-001	1.394921e-002	5.087124e-002
1415900000	2.290993e-002	-6.975649e-002	-1.926304e-001	8.761099e-001	-1.882184e-001	8.748983e-001	1.809986e-002	5.110357e-002
1416000000	2.281171e-002	-6.993083e-002	-1.601065e-001	8.824535e-001	-1.557939e-001	8.811020e-001	2.201036e-002	5.120757e-002
1416100000	2.234513e-002	-7.017205e-002	-1.273002e-001	8.876554e-001	-1.230082e-001	8.860599e-001	2.568688e-002	5.102765e-002
1416200000	2.165881e-002	-7.035727e-002	-9.418172e-002	8.915855e-001	-9.008556e-002	8.897656e-001	2.918647e-002	5.064624e-002
1416300000	2.070075e-002	-7.056223e-002	-6.097624e-002	8.943028e-001	-5.694468e-002	8.922142e-001	3.234204e-002	5.018632e-002
1416400000	1.945840e-002	-7.067950e-002	-2.758256e-002	8.957554e-001	-2.359059e-002	8.935541e-001	3.527972e-002	4.953737e-002
1416500000	1.801032e-002	-7.075711e-002	5.940026e-003	8.959904e-001	9.708394e-003	8.935780e-001	3.790423e-002	4.881590e-002
1416600000	1.625864e-002	-7.070935e-002	3.945635e-002	8.949496e-001	4.314178e-002	8.923707e-001	4.032297e-002	4.800881e-002
1416700000	1.426737e-002	-7.044567e-002	7.305269e-002	8.926465e-001	7.665195e-002	8.898532e-001	4.238214e-002	4.719013e-002
1416800000	1.203288e-002	-7.009545e-002	1.064881e-001	8.890519e-001	1.099881e-001	8.860568e-001	4.417595e-002	4.634123e-002
1416900000	9.530499e-003	-6.954587e-002	1.399640e-001	8.842163e-001	1.432836e-001	8.810495e-001	4.568497e-002	4.549150e-002
1417000000	6.865814e-003	-6.875216e-002	1.732692e-001	8.780499e-001	1.764476e-001	8.746766e-001	4.693543e-002	4.469792e-002
1417100000	3.915350e-003	-6.768650e-002	2.064205e-001	8.706374e-001	2.094053e-001	8.671112e-001	4.789832e-002	4.396175e-002
1417200000	8.388891e-004	-6.635154e-002	2.393242e-001	8.618760e-001	2.422154e-001	8.581774e-001	4.862587e-002	4.336345e-002
1417300000	-2.416080e-003	-6.474719e-002	2.719925e-001	8.519165e-001	2.746273e-001	8.480941e-001	4.910482e-002	4.284435e-002
1417400000	-5.809565e-003	-6.286566e-002	3.044085e-001	8.406273e-001	3.068385e-001	8.365370e-001	4.931711e-002	4.251733e-002
1417500000	-9.291542e-003	-6.058219e-002	3.363189e-001	8.280525e-001	3.386306e-001	8.238396e-001	4.938389e-002	4.228227e-002
1417600000	-1.283645e-002	-5.799612e-002	3.678573e-001	8.142145e-001	3.699108e-001	8.098313e-001	4.923838e-002	4.230475e-002
1417700000	-1.648242e-002	-5.503553e-002	3.989726e-001	7.990848e-001	4.007765e-001	7.945777e-001	4.892507e-002	4.247784e-002
1417800000	-2.009924e-002	-5.167340e-002	4.296476e-001	7.826589e-001	4.311104e-001	7.780099e-001	4.849096e-002	4.286527e-002
1417900000	-2.371344e-002	-4.798728e-002	4.596992e-001	7.650038e-001	4.608281e-001	7.602784e-001	4.791817e-002	4.350111e-002
1418000000	-2.722360e-002	-4.387404e-002	4.890435e-001	7.460913e-001	4.899926e-001	7.412520e-001	4.732774e-002	4.435021e-002
1418100000	-3.068969e-002	-3.942102e-002	5.177888e-001	7.259951e-001	5.184793e-001	7.210157e-001	4.664724e-002	4.544882e-002
1418200000	-3.395689e-002	-3.459689e-002	5.457609e-001	7.046141e-001	5.460537e-001	6.996744e-001	4.595205e-002	4.680916e-002
1418300000	-3.713046e-002	-2.939916e-002	5.730109e-001	6.820543e-001	5.729405e-001	6.770714e-001	4.527377e-002	4.836553e-002
1418400000	-4.005222e-002	-2.383563e-002	5.994017e-001	6.583116e-001	5.991183e-001	6.532583e-001	4.462780e-002	5.020999e-002
1418500000	-4.269652e-002	-1.799378e-002	6.248253e-001	6.334246e-001	6.242584e-001	6.284475e-001	4.410785e-002	5.223705e-002
1418600000	-4.505795e-002	-1.183897e-002	6.493201e-001	6.075167e-001	6.483916e-001	6.024309e-001	4.361476e-002	5.443403e-002
