!Agilent Technologies,E5071C,MY46316135,A.11.02
!Date: Fri Aug 28 18:15:42 2020
!Data & Calibration Information:
!Freq	S11:SOLT2(ON)	S21:SOLT2(ON)	S12:SOLT2(ON)	S22:SOLT2(ON)
!PortZ  Port1:50+j0    Port2:50+j0
!Above PortZ is port z conversion or system Z0 setting when saving the data.
!When reading, reference impedance value at option line is always used.
# Hz S RI R 50
1403500000	-2.948273e-001	2.073688e-001	4.861428e-001	5.008061e-001	4.799410e-001	4.909639e-001	-3.524075e-001	1.644210e-001
1403504884	-2.928505e-001	2.065194e-001	4.885500e-001	4.994480e-001	4.821459e-001	4.899599e-001	-3.503403e-001	1.644377e-001
1403509768	-2.912940e-001	2.064594e-001	4.906993e-001	4.983784e-001	4.846755e-001	4.890778e-001	-3.483873e-001	1.640396e-001
1403514652	-2.895616e-001	2.060814e-001	4.928921e-001	4.972938e-001	4.869616e-001	4.882213e-001	-3.467005e-001	1.638796e-001
1403519536	-2.871657e-001	2.056754e-001	4.952067e-001	4.964262e-001	4.893605e-001	4.872362e-001	-3.450033e-001	1.638552e-001
1403524420	-2.852751e-001	2.053296e-001	4.974656e-001	4.952875e-001	4.915245e-001	4.860781e-001	-3.429968e-001	1.635384e-001
1403529304	-2.833442e-001	2.048700e-001	4.998328e-001	4.943187e-001	4.935819e-001	4.851448e-001	-3.411873e-001	1.633059e-001
1403534188	-2.812531e-001	2.044982e-001	5.024090e-001	4.932174e-001	4.961652e-001	4.840731e-001	-3.393826e-001	1.630598e-001
1403539072	-2.793982e-001	2.042054e-001	5.044920e-001	4.923041e-001	4.980797e-001	4.832873e-001	-3.377244e-001	1.631331e-001
1403543956	-2.770051e-001	2.039531e-001	5.067206e-001	4.914651e-001	5.008150e-001	4.823056e-001	-3.355944e-001	1.630561e-001
1403548840	-2.753445e-001	2.031568e-001	5.089657e-001	4.900359e-001	5.024664e-001	4.809551e-001	-3.340625e-001	1.624355e-001
1403553724	-2.730605e-001	2.025923e-001	5.112925e-001	4.889876e-001	5.048238e-001	4.800389e-001	-3.320202e-001	1.623243e-001
1403558608	-2.714424e-001	2.023783e-001	5.137166e-001	4.878640e-001	5.071379e-001	4.790876e-001	-3.303878e-001	1.618947e-001
1403563492	-2.694920e-001	2.016695e-001	5.159544e-001	4.867225e-001	5.093732e-001	4.779847e-001	-3.284716e-001	1.618228e-001
1403568376	-2.673272e-001	2.013399e-001	5.179976e-001	4.855522e-001	5.117291e-001	4.766485e-001	-3.267356e-001	1.615888e-001
1403573260	-2.658025e-001	2.007595e-001	5.204175e-001	4.843573e-001	5.139553e-001	4.757765e-001	-3.248159e-001	1.612223e-001
1403578144	-2.634597e-001	2.002354e-001	5.226018e-001	4.830363e-001	5.162166e-001	4.746293e-001	-3.230308e-001	1.606562e-001
1403583028	-2.617132e-001	1.999915e-001	5.249246e-001	4.822490e-001	5.183319e-001	4.736716e-001	-3.213743e-001	1.603373e-001
1403587912	-2.593389e-001	1.989478e-001	5.273137e-001	4.810613e-001	5.203911e-001	4.722242e-001	-3.197144e-001	1.601999e-001
1403592796	-2.580906e-001	1.990806e-001	5.291176e-001	4.795949e-001	5.227589e-001	4.713885e-001	-3.175416e-001	1.601413e-001
1403597680	-2.561108e-001	1.979698e-001	5.316920e-001	4.785305e-001	5.250798e-001	4.701221e-001	-3.161168e-001	1.593954e-001
1403602564	-2.541630e-001	1.975208e-001	5.338453e-001	4.771242e-001	5.271786e-001	4.687961e-001	-3.141500e-001	1.594786e-001
1403607448	-2.519681e-001	1.971449e-001	5.360658e-001	4.762185e-001	5.292110e-001	4.678014e-001	-3.124802e-001	1.587040e-001
1403612332	-2.506766e-001	1.966134e-001	5.384585e-001	4.746962e-001	5.316520e-001	4.669094e-001	-3.108359e-001	1.584308e-001
1403617216	-2.485995e-001	1.959519e-001	5.404223e-001	4.734315e-001	5.337990e-001	4.651994e-001	-3.090138e-001	1.580277e-001
1403622100	-2.466190e-001	1.952137e-001	5.429126e-001	4.721403e-001	5.359118e-001	4.638719e-001	-3.070315e-001	1.579456e-001
1403626984	-2.445875e-001	1.947638e-001	5.449523e-001	4.709312e-001	5.380849e-001	4.630434e-001	-3.054227e-001	1.570873e-001
1403631868	-2.429993e-001	1.942447e-001	5.473644e-001	4.696027e-001	5.404456e-001	4.616328e-001	-3.037083e-001	1.569636e-001
1403636752	-2.409489e-001	1.933587e-001	5.495178e-001	4.683174e-001	5.426454e-001	4.605839e-001	-3.018228e-001	1.566211e-001
1403641636	-2.390057e-001	1.928631e-001	5.516398e-001	4.669133e-001	5.447131e-001	4.590524e-001	-3.003410e-001	1.560628e-001
1403646520	-2.374967e-001	1.923541e-001	5.538121e-001	4.654168e-001	5.467604e-001	4.578056e-001	-2.985986e-001	1.557313e-001
1403651404	-2.355305e-001	1.914177e-001	5.561371e-001	4.642654e-001	5.490197e-001	4.566170e-001	-2.966017e-001	1.551873e-001
1403656288	-2.339461e-001	1.907979e-001	5.582877e-001	4.624155e-001	5.509049e-001	4.552446e-001	-2.952891e-001	1.550596e-001
1403661172	-2.323595e-001	1.902333e-001	5.601035e-001	4.613602e-001	5.534147e-001	4.543184e-001	-2.933987e-001	1.544784e-001
1403666056	-2.301190e-001	1.893738e-001	5.624326e-001	4.600158e-001	5.554734e-001	4.524968e-001	-2.917253e-001	1.538196e-001
1403670940	-2.282567e-001	1.888456e-001	5.645756e-001	4.587025e-001	5.575053e-001	4.512156e-001	-2.901758e-001	1.533641e-001
1403675824	-2.263556e-001	1.884174e-001	5.668277e-001	4.575291e-001	5.594479e-001	4.498103e-001	-2.884324e-001	1.529728e-001
1403680708	-2.248875e-001	1.879380e-001	5.687807e-001	4.561758e-001	5.615467e-001	4.485925e-001	-2.864130e-001	1.527860e-001
1403685592	-2.229925e-001	1.866907e-001	5.708875e-001	4.545827e-001	5.641242e-001	4.473441e-001	-2.849857e-001	1.522413e-001
1403690476	-2.213474e-001	1.859619e-001	5.733338e-001	4.528937e-001	5.662611e-001	4.460135e-001	-2.834593e-001	1.514214e-001
1403695360	-2.194797e-001	1.857454e-001	5.754465e-001	4.515988e-001	5.679845e-001	4.444427e-001	-2.817606e-001	1.509287e-001
1403700244	-2.178908e-001	1.845290e-001	5.775221e-001	4.501888e-001	5.702281e-001	4.431133e-001	-2.799167e-001	1.504712e-001
1403705128	-2.161049e-001	1.837363e-001	5.796845e-001	4.487273e-001	5.724291e-001	4.417621e-001	-2.783404e-001	1.500802e-001
1403710012	-2.143347e-001	1.832179e-001	5.818076e-001	4.470859e-001	5.743729e-001	4.404916e-001	-2.767935e-001	1.494093e-001
1403714896	-2.128033e-001	1.827310e-001	5.839510e-001	4.455697e-001	5.766174e-001	4.387312e-001	-2.753383e-001	1.490480e-001
1403719780	-2.107910e-001	1.813390e-001	5.860906e-001	4.441146e-001	5.783139e-001	4.377748e-001	-2.734143e-001	1.484348e-001
1403724664	-2.092264e-001	1.806164e-001	5.880173e-001	4.424857e-001	5.806813e-001	4.358501e-001	-2.720891e-001	1.476534e-001
1403729548	-2.075607e-001	1.801915e-001	5.900766e-001	4.410849e-001	5.826809e-001	4.343924e-001	-2.699020e-001	1.473329e-001
1403734432	-2.060519e-001	1.791782e-001	5.922303e-001	4.394155e-001	5.850079e-001	4.330787e-001	-2.684354e-001	1.466179e-001
1403739316	-2.040191e-001	1.782101e-001	5.943070e-001	4.380368e-001	5.869584e-001	4.316760e-001	-2.670697e-001	1.461742e-001
1403744200	-2.023866e-001	1.775603e-001	5.964427e-001	4.366187e-001	5.890400e-001	4.303333e-001	-2.655606e-001	1.455200e-001
1403749084	-2.006453e-001	1.768105e-001	5.985033e-001	4.348620e-001	5.910661e-001	4.283886e-001	-2.637970e-001	1.449620e-001
1403753968	-1.990286e-001	1.760815e-001	6.004323e-001	4.333968e-001	5.929447e-001	4.270238e-001	-2.619852e-001	1.445074e-001
1403758852	-1.975302e-001	1.753085e-001	6.023442e-001	4.316591e-001	5.949756e-001	4.258028e-001	-2.604377e-001	1.437316e-001
1403763736	-1.956247e-001	1.742191e-001	6.046815e-001	4.303417e-001	5.971328e-001	4.243948e-001	-2.590298e-001	1.431723e-001
1403768620	-1.940963e-001	1.734239e-001	6.067011e-001	4.286041e-001	5.992377e-001	4.225210e-001	-2.574871e-001	1.425197e-001
1403773504	-1.927310e-001	1.726726e-001	6.085512e-001	4.269536e-001	6.010935e-001	4.210951e-001	-2.561320e-001	1.420066e-001
1403778388	-1.907377e-001	1.718585e-001	6.105968e-001	4.254066e-001	6.033779e-001	4.195973e-001	-2.541764e-001	1.412386e-001
1403783272	-1.892521e-001	1.707398e-001	6.126584e-001	4.236634e-001	6.051810e-001	4.178739e-001	-2.528398e-001	1.406712e-001
1403788156	-1.877120e-001	1.700664e-001	6.145295e-001	4.220176e-001	6.070192e-001	4.164000e-001	-2.512537e-001	1.400613e-001
1403793040	-1.861852e-001	1.692550e-001	6.165383e-001	4.204913e-001	6.094102e-001	4.145792e-001	-2.498388e-001	1.394833e-001
1403797924	-1.844420e-001	1.685757e-001	6.186071e-001	4.188397e-001	6.115092e-001	4.129546e-001	-2.483046e-001	1.386985e-001
1403802808	-1.828510e-001	1.675316e-001	6.205517e-001	4.171044e-001	6.132240e-001	4.114337e-001	-2.467132e-001	1.378684e-001
1403807692	-1.811173e-001	1.663802e-001	6.226179e-001	4.155603e-001	6.153432e-001	4.098549e-001	-2.454356e-001	1.374697e-001
1403812576	-1.798958e-001	1.656199e-001	6.246538e-001	4.136743e-001	6.178177e-001	4.082912e-001	-2.440068e-001	1.366381e-001
1403817460	-1.783766e-001	1.646599e-001	6.267820e-001	4.119415e-001	6.194940e-001	4.069659e-001	-2.422921e-001	1.359255e-001
1403822344	-1.767157e-001	1.634767e-001	6.286317e-001	4.103578e-001	6.214433e-001	4.050570e-001	-2.407924e-001	1.354019e-001
1403827228	-1.752454e-001	1.627252e-001	6.303449e-001	4.086718e-001	6.236304e-001	4.033402e-001	-2.394228e-001	1.340636e-001
1403832112	-1.740257e-001	1.615418e-001	6.325573e-001	4.068946e-001	6.253923e-001	4.016687e-001	-2.379971e-001	1.338339e-001
1403836996	-1.723108e-001	1.611295e-001	6.342329e-001	4.050567e-001	6.275706e-001	3.998969e-001	-2.365720e-001	1.330188e-001
1403841880	-1.708754e-001	1.600004e-001	6.361742e-001	4.033527e-001	6.296681e-001	3.982789e-001	-2.352423e-001	1.325177e-001
1403846764	-1.692816e-001	1.589008e-001	6.382886e-001	4.014588e-001	6.317206e-001	3.967172e-001	-2.336800e-001	1.317829e-001
1403851648	-1.676920e-001	1.580984e-001	6.399778e-001	3.998650e-001	6.330970e-001	3.951019e-001	-2.321518e-001	1.305982e-001
1403856532	-1.661266e-001	1.573215e-001	6.418295e-001	3.981999e-001	6.353430e-001	3.932683e-001	-2.308873e-001	1.300592e-001
1403861416	-1.646436e-001	1.563135e-001	6.439783e-001	3.963794e-001	6.373375e-001	3.914747e-001	-2.293611e-001	1.295997e-001
1403866300	-1.634779e-001	1.551268e-001	6.458396e-001	3.942574e-001	6.389096e-001	3.899813e-001	-2.278476e-001	1.286502e-001
1403871184	-1.619851e-001	1.539146e-001	6.474862e-001	3.924376e-001	6.406544e-001	3.882653e-001	-2.265957e-001	1.279596e-001
1403876068	-1.603706e-001	1.531909e-001	6.494431e-001	3.908486e-001	6.428044e-001	3.863501e-001	-2.250950e-001	1.271608e-001
1403880952	-1.589027e-001	1.519903e-001	6.512464e-001	3.889104e-001	6.443628e-001	3.844722e-001	-2.237521e-001	1.264855e-001
1403885836	-1.575648e-001	1.511547e-001	6.531494e-001	3.871907e-001	6.464752e-001	3.830771e-001	-2.224743e-001	1.257217e-001
1403890720	-1.564906e-001	1.499392e-001	6.549936e-001	3.853225e-001	6.483241e-001	3.812467e-001	-2.207967e-001	1.248989e-001
1403895604	-1.547320e-001	1.490383e-001	6.568306e-001	3.834768e-001	6.502738e-001	3.793029e-001	-2.196345e-001	1.239680e-001
1403900488	-1.537763e-001	1.481237e-001	6.585721e-001	3.816830e-001	6.519643e-001	3.778138e-001	-2.181714e-001	1.234077e-001
1403905372	-1.521984e-001	1.472235e-001	6.603712e-001	3.799550e-001	6.538195e-001	3.756886e-001	-2.167774e-001	1.224832e-001
1403910256	-1.507380e-001	1.460444e-001	6.622642e-001	3.777562e-001	6.555278e-001	3.738871e-001	-2.153929e-001	1.213846e-001
1403915140	-1.494799e-001	1.454103e-001	6.640194e-001	3.759950e-001	6.573011e-001	3.718017e-001	-2.145236e-001	1.208779e-001
1403920024	-1.480386e-001	1.435867e-001	6.659278e-001	3.741770e-001	6.589888e-001	3.703921e-001	-2.128452e-001	1.200541e-001
1403924908	-1.468070e-001	1.431003e-001	6.676091e-001	3.720228e-001	6.612130e-001	3.683077e-001	-2.116345e-001	1.190697e-001
1403929792	-1.453618e-001	1.416379e-001	6.695895e-001	3.699797e-001	6.628096e-001	3.664420e-001	-2.103357e-001	1.184160e-001
1403934676	-1.440881e-001	1.404440e-001	6.713251e-001	3.682220e-001	6.643753e-001	3.647243e-001	-2.093067e-001	1.176627e-001
1403939560	-1.424843e-001	1.400639e-001	6.729406e-001	3.666153e-001	6.663130e-001	3.625815e-001	-2.077987e-001	1.166005e-001
1403944444	-1.416100e-001	1.385731e-001	6.747875e-001	3.643921e-001	6.682806e-001	3.608503e-001	-2.064809e-001	1.160257e-001
1403949328	-1.402807e-001	1.377416e-001	6.764035e-001	3.625082e-001	6.698100e-001	3.588716e-001	-2.054002e-001	1.150309e-001
1403954212	-1.390233e-001	1.366644e-001	6.782753e-001	3.604390e-001	6.717166e-001	3.568709e-001	-2.041067e-001	1.144139e-001
1403959096	-1.377780e-001	1.351902e-001	6.799235e-001	3.586662e-001	6.733495e-001	3.550942e-001	-2.027377e-001	1.135945e-001
1403963980	-1.364384e-001	1.344618e-001	6.816539e-001	3.564023e-001	6.749818e-001	3.531248e-001	-2.015302e-001	1.128826e-001
1403968864	-1.347585e-001	1.333284e-001	6.832662e-001	3.547300e-001	6.768956e-001	3.511135e-001	-1.999705e-001	1.117970e-001
1403973748	-1.337381e-001	1.325084e-001	6.848718e-001	3.526901e-001	6.786504e-001	3.495787e-001	-1.988606e-001	1.108137e-001
1403978632	-1.325943e-001	1.311531e-001	6.866632e-001	3.507201e-001	6.801323e-001	3.471928e-001	-1.978873e-001	1.099503e-001
1403983516	-1.312738e-001	1.296861e-001	6.885271e-001	3.485247e-001	6.819116e-001	3.456600e-001	-1.965573e-001	1.090445e-001
1403988400	-1.302887e-001	1.289995e-001	6.898562e-001	3.468000e-001	6.834529e-001	3.434938e-001	-1.954434e-001	1.082984e-001
1403993284	-1.289209e-001	1.280527e-001	6.916476e-001	3.446560e-001	6.850343e-001	3.415979e-001	-1.942848e-001	1.073489e-001
1403998168	-1.276660e-001	1.267986e-001	6.932608e-001	3.425147e-001	6.868490e-001	3.395139e-001	-1.930011e-001	1.066046e-001
1404003053	-1.266161e-001	1.256222e-001	6.948045e-001	3.407831e-001	6.881686e-001	3.379228e-001	-1.916121e-001	1.056626e-001
1404007937	-1.256982e-001	1.244957e-001	6.964001e-001	3.385137e-001	6.902174e-001	3.357657e-001	-1.906782e-001	1.044316e-001
1404012821	-1.242278e-001	1.232537e-001	6.983428e-001	3.367098e-001	6.918592e-001	3.338506e-001	-1.894995e-001	1.037317e-001
1404017705	-1.232407e-001	1.219354e-001	6.998074e-001	3.344245e-001	6.933317e-001	3.317547e-001	-1.881165e-001	1.030123e-001
1404022589	-1.220279e-001	1.213046e-001	7.013919e-001	3.326366e-001	6.947883e-001	3.296972e-001	-1.873706e-001	1.021886e-001
1404027473	-1.209733e-001	1.200549e-001	7.028625e-001	3.304628e-001	6.966526e-001	3.278913e-001	-1.859725e-001	1.011610e-001
1404032357	-1.197469e-001	1.189251e-001	7.044323e-001	3.281567e-001	6.983622e-001	3.255412e-001	-1.851748e-001	9.990814e-002
1404037241	-1.187845e-001	1.177425e-001	7.062557e-001	3.262937e-001	7.001941e-001	3.236665e-001	-1.836706e-001	9.933431e-002
1404042125	-1.175050e-001	1.168347e-001	7.074255e-001	3.242007e-001	7.016623e-001	3.215306e-001	-1.828625e-001	9.822982e-002
1404047009	-1.163925e-001	1.155561e-001	7.094284e-001	3.219502e-001	7.029024e-001	3.196926e-001	-1.816474e-001	9.739308e-002
1404051893	-1.152877e-001	1.144712e-001	7.106616e-001	3.201105e-001	7.048157e-001	3.174253e-001	-1.803302e-001	9.649722e-002
1404056777	-1.143364e-001	1.132748e-001	7.123997e-001	3.178738e-001	7.062325e-001	3.155913e-001	-1.796203e-001	9.543819e-002
1404061661	-1.138268e-001	1.120586e-001	7.136410e-001	3.159305e-001	7.078096e-001	3.131508e-001	-1.784835e-001	9.464877e-002
1404066545	-1.120357e-001	1.112039e-001	7.152530e-001	3.137596e-001	7.091600e-001	3.112349e-001	-1.773973e-001	9.381230e-002
1404071429	-1.115074e-001	1.098266e-001	7.168572e-001	3.115791e-001	7.107770e-001	3.093460e-001	-1.766477e-001	9.309061e-002
1404076313	-1.101354e-001	1.086934e-001	7.183359e-001	3.092447e-001	7.120976e-001	3.071930e-001	-1.751911e-001	9.217580e-002
1404081197	-1.087693e-001	1.076367e-001	7.196897e-001	3.073573e-001	7.136399e-001	3.050482e-001	-1.740771e-001	9.131641e-002
1404086081	-1.080623e-001	1.064975e-001	7.211692e-001	3.053927e-001	7.151507e-001	3.030625e-001	-1.730810e-001	9.016927e-002
1404090965	-1.072191e-001	1.054908e-001	7.226225e-001	3.029459e-001	7.167406e-001	3.010001e-001	-1.722007e-001	8.894568e-002
1404095849	-1.059921e-001	1.039622e-001	7.242190e-001	3.007388e-001	7.182841e-001	2.989420e-001	-1.712793e-001	8.807810e-002
1404100733	-1.053118e-001	1.030279e-001	7.255225e-001	2.988143e-001	7.197316e-001	2.968025e-001	-1.704047e-001	8.721662e-002
1404105617	-1.042156e-001	1.019069e-001	7.268522e-001	2.967238e-001	7.210096e-001	2.945297e-001	-1.690680e-001	8.634228e-002
1404110501	-1.032323e-001	1.006247e-001	7.283654e-001	2.947223e-001	7.225246e-001	2.925665e-001	-1.680622e-001	8.543181e-002
1404115385	-1.020610e-001	9.923251e-002	7.298490e-001	2.922219e-001	7.239293e-001	2.904071e-001	-1.671099e-001	8.439279e-002
1404120269	-1.012320e-001	9.838548e-002	7.311937e-001	2.902838e-001	7.255217e-001	2.881575e-001	-1.663606e-001	8.348764e-002
1404125153	-1.002413e-001	9.712603e-002	7.324667e-001	2.879806e-001	7.268418e-001	2.861272e-001	-1.652522e-001	8.262838e-002
1404130037	-9.939356e-002	9.599054e-002	7.338312e-001	2.857358e-001	7.281309e-001	2.840092e-001	-1.641080e-001	8.170882e-002
1404134921	-9.824670e-002	9.467477e-002	7.353140e-001	2.836253e-001	7.294940e-001	2.816279e-001	-1.634586e-001	8.048270e-002
1404139805	-9.776944e-002	9.359840e-002	7.367212e-001	2.813790e-001	7.310421e-001	2.795637e-001	-1.622670e-001	7.969707e-002
1404144689	-9.696952e-002	9.276534e-002	7.378147e-001	2.792551e-001	7.324841e-001	2.772514e-001	-1.615783e-001	7.866384e-002
1404149573	-9.551784e-002	9.149863e-002	7.391825e-001	2.770759e-001	7.339587e-001	2.753444e-001	-1.603354e-001	7.779941e-002
1404154457	-9.506479e-002	8.987954e-002	7.407012e-001	2.746879e-001	7.351154e-001	2.732376e-001	-1.595282e-001	7.682733e-002
1404159341	-9.419570e-002	8.869463e-002	7.421471e-001	2.725640e-001	7.363954e-001	2.708205e-001	-1.587082e-001	7.582021e-002
1404164225	-9.342151e-002	8.776506e-002	7.431485e-001	2.701143e-001	7.379076e-001	2.687029e-001	-1.579213e-001	7.494556e-002
1404169109	-9.251628e-002	8.689668e-002	7.444123e-001	2.681207e-001	7.392272e-001	2.665488e-001	-1.569485e-001	7.385565e-002
1404173993	-9.140482e-002	8.520915e-002	7.458200e-001	2.657143e-001	7.407673e-001	2.642262e-001	-1.558621e-001	7.298019e-002
1404178877	-9.090227e-002	8.425877e-002	7.471861e-001	2.634032e-001	7.418277e-001	2.618583e-001	-1.550590e-001	7.196663e-002
1404183761	-8.976117e-002	8.316316e-002	7.484109e-001	2.614063e-001	7.432222e-001	2.600499e-001	-1.542152e-001	7.099899e-002
1404188645	-8.938046e-002	8.197368e-002	7.497573e-001	2.590264e-001	7.444092e-001	2.576926e-001	-1.535007e-001	6.988861e-002
1404193529	-8.825280e-002	8.074366e-002	7.508809e-001	2.569121e-001	7.457513e-001	2.554678e-001	-1.526451e-001	6.916010e-002
1404198413	-8.766089e-002	7.951104e-002	7.521952e-001	2.546030e-001	7.470521e-001	2.532210e-001	-1.515381e-001	6.796079e-002
1404203297	-8.647605e-002	7.860263e-002	7.533647e-001	2.523513e-001	7.482398e-001	2.510578e-001	-1.511656e-001	6.723683e-002
1404208181	-8.585530e-002	7.706452e-002	7.545856e-001	2.501496e-001	7.495104e-001	2.488013e-001	-1.501131e-001	6.601318e-002
1404213065	-8.508043e-002	7.602747e-002	7.560464e-001	2.478920e-001	7.509114e-001	2.466069e-001	-1.492419e-001	6.528912e-002
1404217949	-8.415854e-002	7.492653e-002	7.571514e-001	2.455597e-001	7.520190e-001	2.443837e-001	-1.487951e-001	6.424063e-002
1404222833	-8.376630e-002	7.369722e-002	7.583173e-001	2.434443e-001	7.534569e-001	2.423113e-001	-1.478013e-001	6.323276e-002
1404227717	-8.294324e-002	7.213515e-002	7.596717e-001	2.408830e-001	7.543035e-001	2.396141e-001	-1.469360e-001	6.230076e-002
1404232601	-8.237214e-002	7.115036e-002	7.603419e-001	2.385322e-001	7.558026e-001	2.373608e-001	-1.458785e-001	6.140452e-002
1404237485	-8.137298e-002	6.987805e-002	7.617849e-001	2.362394e-001	7.566170e-001	2.354030e-001	-1.454745e-001	6.027516e-002
1404242369	-8.058694e-002	6.903500e-002	7.627973e-001	2.341245e-001	7.580101e-001	2.329104e-001	-1.448659e-001	5.937129e-002
1404247253	-7.999553e-002	6.767273e-002	7.640028e-001	2.316568e-001	7.593435e-001	2.308543e-001	-1.436567e-001	5.838968e-002
1404252137	-7.961426e-002	6.651345e-002	7.650691e-001	2.294540e-001	7.603237e-001	2.284827e-001	-1.431394e-001	5.746280e-002
